
T23A0 000:028 SEGGER J-Link V6.14d Log File (0015ms, 0043ms total)
T23A0 000:028 DLL Compiled: Apr 19 2017 18:25:54 (0023ms, 0051ms total)
T23A0 000:028 Logging started @ 2024-06-28 16:35 (0028ms, 0056ms total)
T23A0 000:058 JLINK_SetWarnOutHandler(...) (0004ms, 0062ms total)
T23A0 000:064 JLINK_OpenEx(...)
Firmware: J-Link Pro V4 compiled Sep 22 2022 15:00:37
Hardware: V4.00
S/N: 174403055
Feature(s): RDI, FlashBP, FlashDL, JFlash, GDBWEBSRV Webserver running on local port 19080 (0152ms, 0216ms total)
T23A0 000:064   returns O.K. (0158ms, 0222ms total)
T23A0 000:224 JLINK_GetEmuCaps()  returns 0xB9FF7BBF (0006ms, 0230ms total)
T23A0 000:232 JLINK_TIF_GetAvailable(...) (0093ms, 0325ms total)
T23A0 000:327 JLINK_SetErrorOutHandler(...) (0004ms, 0331ms total)
T23A0 000:333 JLINK_ExecCommand("ProjectFile = "\\fileserver\profiles1$\proj1_wsn\Documents\vigneshta\JLinkSettings.ini"", ...). C:\Program Files (x86)\SEGGER\JLink_V614d\JLinkDevices.xml evaluated successfully.  returns 0x00 (0365ms, 0698ms total)
T23A0 000:709 JLINK_ExecCommand("Device = ATSAMD20J18", ...). Device "ATSAMD20J18" selected.  returns 0x00 (0039ms, 0744ms total)
T23A0 000:754 JLINK_ExecCommand("DisableConnectionTimeout", ...).   returns 0x01 (0002ms, 0752ms total)
T23A0 000:762 JLINK_GetHardwareVersion()  returns 0x9C40 (0006ms, 0760ms total)
T23A0 000:770 JLINK_GetDLLVersion()  returns 61404 (0004ms, 0766ms total)
T23A0 000:777 JLINK_GetFirmwareString(...) (0003ms, 0772ms total)
T23A0 000:792 JLINK_GetDLLVersion()  returns 61404 (0017ms, 0793ms total)
T23A0 000:811 JLINK_GetCompileDateTime() (0005ms, 0800ms total)
T23A0 000:823 JLINK_GetFirmwareString(...) (0004ms, 0806ms total)
T23A0 000:833 JLINK_GetHardwareVersion()  returns 0x9C40 (0016ms, 0824ms total)
T23A0 000:870 JLINK_TIF_Select(JLINKARM_TIF_SWD)  returns 0x00 (0067ms, 0893ms total)
T23A0 000:939 JLINK_SetSpeed(5000) (0030ms, 0925ms total)
T23A0 000:971 JLINK_GetId() >0x10B TIF>Found SW-DP with ID 0x0BC11477 >0x0D TIF> >0x28 TIF> >0x0D TIF> >0x28 TIF> >0x0D TIF> >0x28 TIF> >0x0D TIF> >0x28 TIF> >0x0D TIF> >0x21 TIF> >0x0D TIF> >0x28 TIF> >0x0D TIF> >0x28 TIF> >0x0D TIF> >0x28 TIF> >0x0D TIF> >0x21 TIF> >0x0D TIF> >0x21 TIF> >0x10B TIF>Found SW-DP with ID 0x0BC11477 >0x0D TIF> >0x28 TIF> >0x0D TIF> >0x28 TIF> >0x0D TIF> >0x28 TIF> >0x0D TIF> >0x28 TIF> >0x0D TIF> >0x21 TIF> >0x0D TIF> >0x28 TIF> >0x0D TIF> >0x28 TIF> >0x0D TIF> >0x21 TIF>
 >0x0D TIF> >0x21 TIF> >0x0D TIF> >0x21 TIF>AP-IDR: 0x04770031, Type: AHB-APAHB-AP ROM: 0x41003000 (Base addr. of first ROM table) >0x0D TIF> >0x28 TIF> >0x0D TIF> >0x28 TIF> >0x0D TIF> >0x28 TIF> >0x0D TIF> >0x21 TIF> >0x0D TIF> >0x21 TIF> >0x0D TIF> >0x28 TIF> >0x0D TIF> >0x21 TIF> >0x0D TIF> >0x21 TIF>Found Cortex-M0 r0p1, Little endian. -- CPU_ReadMem(4 bytes @ 0xE000EDF0) -- CPU_WriteMem(4 bytes @ 0xE000EDF0) -- CPU_ReadMem(4 bytes @ 0xE0002000)FPUnit: 4 code (BP) slots and 0 literal slots
 -- CPU_ReadMem(4 bytes @ 0xE000EDFC) -- CPU_WriteMem(4 bytes @ 0xE000EDFC) -- CPU_ReadMem(4 bytes @ 0xE0001000) -- CPU_WriteMem(4 bytes @ 0xE0001000)CoreSight components:ROMTbl[0] @ 41003000 -- CPU_ReadMem(16 bytes @ 0x41003000) -- CPU_ReadMem(16 bytes @ 0xE00FFFF0) -- CPU_ReadMem(16 bytes @ 0xE00FFFE0)ROMTbl[0][0]: E00FF000, CID: B105100D, PID: 000BB4C0 ROM TableROMTbl[1] @ E00FF000 -- CPU_ReadMem(16 bytes @ 0xE00FF000) -- CPU_ReadMem(16 bytes @ 0xE000EFF0) -- CPU_ReadMem(16 bytes @ 0xE000EFE0)
ROMTbl[1][0]: E000E000, CID: B105E00D, PID: 000BB008 SCS -- CPU_ReadMem(16 bytes @ 0xE0001FF0) -- CPU_ReadMem(16 bytes @ 0xE0001FE0)ROMTbl[1][1]: E0001000, CID: B105E00D, PID: 000BB00A DWT -- CPU_ReadMem(16 bytes @ 0xE0002FF0) -- CPU_ReadMem(16 bytes @ 0xE0002FE0)ROMTbl[1][2]: E0002000, CID: B105E00D, PID: 000BB00B FPB >0x0D TIF> >0x21 TIF>  returns 0x0BC11477 (1661ms, 2588ms total)
T23A0 002:634 JLINK_GetDLLVersion()  returns 61404 (0004ms, 2594ms total)
T23A0 002:651 JLINK_CORE_GetFound()  returns 0x60000FF (0007ms, 2602ms total)
T23A0 002:661 JLINK_GetDebugInfo(0x100 = JLINKARM_ROM_TABLE_ADDR_INDEX) -- Value=0x41003000  returns 0x00 (0012ms, 2617ms total)
T23A0 002:678 JLINK_GetDebugInfo(0x100 = JLINKARM_ROM_TABLE_ADDR_INDEX) -- Value=0x41003000  returns 0x00 (0013ms, 2632ms total)
T23A0 002:693 JLINK_GetDebugInfo(0x101 = JLINKARM_DEBUG_INFO_ETM_ADDR_INDEX) -- Value=0x00000000  returns 0x00 (0010ms, 2644ms total)
T23A0 002:720 JLINK_ReadMemEx(0xE0041FF0, 0x0010 Bytes, ..., AccessWidth = 33554436) -- CPU is running - Data: AA AA AA AA AA AA AA AA AA AA AA AA AA AA AA AA  returns 0xFFFFFEFA (1077ms, 3738ms total)
T23A0 003:799 JLINK_GetDebugInfo(0x102 = JLINKARM_DEBUG_INFO_MTB_ADDR_INDEX) -- Value=0x00000000  returns 0x00 (0007ms, 3747ms total)
T23A0 003:819 JLINK_GetDebugInfo(0x103 = JLINKARM_DEBUG_INFO_TPIU_ADDR_INDEX) -- Value=0x00000000  returns 0x00 (0009ms, 3757ms total)
T23A0 003:886 JLINK_ReadMemEx(0xE0040FF0, 0x0010 Bytes, ..., AccessWidth = 33554436) -- CPU is running - Data: AA AA AA AA AA AA AA AA AA AA AA AA AA AA AA AA  returns 0xFFFFFEFA (0011ms, 3770ms total)
T23A0 003:899 JLINK_GetDebugInfo(0x104 = JLINKARM_DEBUG_INFO_ITM_ADDR_INDEX) -- Value=0xE0000000  returns 0x00 (0008ms, 3780ms total)
T23A0 003:908 JLINK_GetDebugInfo(0x105 = JLINKARM_DEBUG_INFO_DWT_ADDR_INDEX) -- Value=0xE0001000  returns 0x00 (0010ms, 3791ms total)
T23A0 003:926 JLINK_GetDebugInfo(0x106 = JLINKARM_DEBUG_INFO_FPB_ADDR_INDEX) -- Value=0xE0002000  returns 0x00 (0007ms, 3806ms total)
T23A0 003:935 JLINK_GetDebugInfo(0x107 = JLINKARM_DEBUG_INFO_NVIC_ADDR_INDEX) -- Value=0xE000E000  returns 0x00 (0008ms, 3816ms total)
T23A0 003:945 JLINK_GetDebugInfo(0x10C = JLINKARM_DEBUG_INFO_DBG_ADDR_INDEX) -- Value=0xE000EDF0  returns 0x00 (0008ms, 3826ms total)
T23A0 003:955 JLINK_ReadMemU32(0xE000ED00, 0x0001 Items, ...) -- CPU is running -- CPU_ReadMem(4 bytes @ 0xE000ED00) - Data: 01 C6 0C 41  returns 0x01 (0027ms, 3855ms total)
T23A0 003:983 JLINK_GetDebugInfo(0x10F = JLINKARM_DEBUG_INFO_HAS_CORTEX_M_SECURITY_EXT_INDEX) -- Value=0x00000000  returns 0x00 (0008ms, 3864ms total)
T23A0 003:994 JLINK_SetResetType(JLINKARM_CM3_RESET_TYPE_NORMAL)  returns JLINKARM_CM3_RESET_TYPE_NORMAL (0005ms, 3872ms total)
T23A0 004:001 JLINK_Reset() -- CPU_ReadMem(4 bytes @ 0xE000EDFC) -- CPU_WriteMem(4 bytes @ 0xE000EDFC) -- CPU_WriteMem(4 bytes @ 0xE000ED0C) -- CPU is running -- CPU_ReadMem(4 bytes @ 0xE000EDF0) -- CPU is running -- CPU_ReadMem(4 bytes @ 0x41002100) -- CPU is running -- CPU_WriteMem(4 bytes @ 0xE000EDFC) -- CPU_WriteMem(4 bytes @ 0xE0002000) -- CPU_ReadMem(4 bytes @ 0xE000EDFC) -- CPU_ReadMem(4 bytes @ 0xE0001000) -- CPU_WriteMem(4 bytes @ 0xE0001000) (0119ms, 3993ms total)
T23A0 004:122 JLINK_Halt()  returns 0x00 (0009ms, 4004ms total)
T23A0 004:133 JLINK_ReadMemU32(0xE000EDF0, 0x0001 Items, ...) -- CPU_ReadMem(4 bytes @ 0xE000EDF0) - Data: 03 00 03 00  returns 0x01 (0014ms, 4020ms total)
T23A0 004:151 JLINK_WriteU32(0xE000EDF0, 0xA05F0003) -- CPU_WriteMem(4 bytes @ 0xE000EDF0)  returns 0x00 (0012ms, 4036ms total)
T23A0 004:165 JLINK_WriteU32(0xE000EDFC, 0x01000000) -- CPU_WriteMem(4 bytes @ 0xE000EDFC)  returns 0x00 (0010ms, 4048ms total)
T23A0 004:191 JLINK_GetHWStatus(...)  returns 0x00 (0009ms, 4060ms total)
T23A0 004:214 JLINK_GetNumBPUnits(Type = 0xFFFFFF00)  returns 0x04 (0005ms, 4066ms total)
T23A0 004:221 JLINK_GetNumBPUnits(Type = 0xF0)  returns 0x2000 (0007ms, 4075ms total)
T23A0 004:230 JLINK_GetNumWPUnits()  returns 0x02 (0019ms, 4096ms total)
T23A0 004:259 JLINK_GetSpeed()  returns 0x1388 (0011ms, 4109ms total)
T23A0 004:281 JLINK_ReadMemU32(0xE000E004, 0x0001 Items, ...) -- CPU_ReadMem(4 bytes @ 0xE000E004) - Data: 00 00 00 00  returns 0x01 (0013ms, 4126ms total)
T23A0 004:295 JLINK_Halt()  returns 0x00 (0006ms, 4133ms total)
T23A0 004:304 JLINK_IsHalted()  returns TRUE (0008ms, 4144ms total)
T23A0 004:317 JLINK_WriteMem(0x20000000, 0x00FC Bytes, ...) - Data: 00 BE 0A E0 0D 78 2D 06 68 40 08 24 40 00 00 D3 ... -- CPU_WriteMem(252 bytes @ 0x20000000)  returns 0xFC (0021ms, 4157ms total)
T23A0 004:341 JLINK_WriteReg(R0, 0x00000000)  returns 0x00 (0005ms, 4165ms total)
T23A0 004:348 JLINK_WriteReg(R1, 0x00B71B00)  returns 0x00 (0006ms, 4173ms total)
T23A0 004:356 JLINK_WriteReg(R2, 0x00000001)  returns 0x00 (0008ms, 4183ms total)
T23A0 004:366 JLINK_WriteReg(R3, 0x00000000)  returns 0x00 (0005ms, 4190ms total)
T23A0 004:373 JLINK_WriteReg(R4, 0x00000000)  returns 0x00 (0019ms, 4211ms total)
T23A0 004:394 JLINK_WriteReg(R5, 0x00000000)  returns 0x00 (0015ms, 4228ms total)
T23A0 004:414 JLINK_WriteReg(R6, 0x00000000)  returns 0x00 (0006ms, 4239ms total)
T23A0 004:422 JLINK_WriteReg(R7, 0x00000000)  returns 0x00 (0009ms, 4250ms total)
T23A0 004:433 JLINK_WriteReg(R8, 0x00000000)  returns 0x00 (0007ms, 4259ms total)
T23A0 004:452 JLINK_WriteReg(R9, 0x200000F4)  returns 0x00 (0006ms, 4277ms total)
T23A0 004:460 JLINK_WriteReg(R10, 0x00000000)  returns 0x00 (0005ms, 4284ms total)
T23A0 004:467 JLINK_WriteReg(R11, 0x00000000)  returns 0x00 (0030ms, 4316ms total)
T23A0 004:500 JLINK_WriteReg(R12, 0x00000000)  returns 0x00 (0006ms, 4325ms total)
T23A0 004:508 JLINK_WriteReg(R13 (SP), 0x20001000)  returns 0x00 (0007ms, 4334ms total)
T23A0 004:518 JLINK_WriteReg(R14, 0x20000001)  returns 0x00 (0013ms, 4350ms total)
T23A0 004:534 JLINK_WriteReg(R15 (PC), 0x20000038)  returns 0x00 (0013ms, 4366ms total)
T23A0 004:549 JLINK_WriteReg(XPSR, 0x01000000)  returns 0x00 (0008ms, 4376ms total)
T23A0 004:560 JLINK_WriteReg(MSP, 0x20001000)  returns 0x00 (0008ms, 4386ms total)
T23A0 004:570 JLINK_WriteReg(PSP, 0x20001000)  returns 0x00 (0019ms, 4407ms total)
T23A0 004:591 JLINK_WriteReg(CFBP, 0x00000000)  returns 0x00 (0007ms, 4416ms total)
T23A0 004:599 JLINK_SetBPEx(Addr = 0x20000000, Type = 0xFFFFFFF2) -- CPU_ReadMem(2 bytes @ 0x20000000)  returns 0x00000001 (0034ms, 4451ms total)
T23A0 004:635 JLINK_Go() -- CPU_WriteMem(2 bytes @ 0x20000000) -- CPU_ReadMem(4 bytes @ 0xE0001000) -- CPU_WriteMem(4 bytes @ 0xE0001000) -- CPU_WriteMem(4 bytes @ 0xE0002008) -- CPU_WriteMem(4 bytes @ 0xE000200C) -- CPU_WriteMem(4 bytes @ 0xE0002010) -- CPU_WriteMem(4 bytes @ 0xE0002014) -- CPU_WriteMem(4 bytes @ 0xE0001004) (0083ms, 4536ms total)
T23A0 004:719 JLINK_IsHalted() -- CPU_ReadMem(2 bytes @ 0x20000000)  returns TRUE (0031ms, 4568ms total)
T23A0 004:752 JLINK_ReadReg(R15 (PC))  returns 0x20000000 (0008ms, 4545ms total)
T23A0 004:770 JLINK_ClrBPEx(BPHandle = 0x00000001)  returns 0x00 (0009ms, 4564ms total)
T23A0 004:789 JLINK_ReadReg(R0)  returns 0x00000000 (0007ms, 4581ms total)
T23A0 004:800 JLINK_WriteReg(R0, 0x00000000)  returns 0x00 (0018ms, 4601ms total)
T23A0 004:820 JLINK_WriteReg(R1, 0x00004000)  returns 0x00 (0016ms, 4619ms total)
T23A0 004:839 JLINK_WriteReg(R2, 0x000000FF)  returns 0x00 (0007ms, 4629ms total)
T23A0 004:848 JLINK_WriteReg(R3, 0x00000000)  returns 0x00 (0008ms, 4639ms total)
T23A0 004:858 JLINK_WriteReg(R4, 0x00000000)  returns 0x00 (0007ms, 4648ms total)
T23A0 004:867 JLINK_WriteReg(R5, 0x00000000)  returns 0x00 (0020ms, 4670ms total)
T23A0 004:889 JLINK_WriteReg(R6, 0x00000000)  returns 0x00 (0006ms, 4678ms total)
T23A0 004:897 JLINK_WriteReg(R7, 0x00000000)  returns 0x00 (0016ms, 4696ms total)
T23A0 004:914 JLINK_WriteReg(R8, 0x00000000)  returns 0x00 (0005ms, 4702ms total)
T23A0 004:921 JLINK_WriteReg(R9, 0x200000F4)  returns 0x00 (0005ms, 4709ms total)
T23A0 004:928 JLINK_WriteReg(R10, 0x00000000)  returns 0x00 (0007ms, 4718ms total)
T23A0 004:937 JLINK_WriteReg(R11, 0x00000000)  returns 0x00 (0006ms, 4726ms total)
T23A0 004:945 JLINK_WriteReg(R12, 0x00000000)  returns 0x00 (0007ms, 4735ms total)
T23A0 004:954 JLINK_WriteReg(R13 (SP), 0x20001000)  returns 0x00 (0018ms, 4755ms total)
T23A0 004:978 JLINK_WriteReg(R14, 0x20000001)  returns 0x00 (0012ms, 4770ms total)
T23A0 004:991 JLINK_WriteReg(R15 (PC), 0x20000020)  returns 0x00 (0006ms, 4777ms total)
T23A0 005:000 JLINK_WriteReg(XPSR, 0x01000000)  returns 0x00 (0033ms, 4813ms total)
T23A0 005:036 JLINK_WriteReg(MSP, 0x20001000)  returns 0x00 (0014ms, 4830ms total)
T23A0 005:053 JLINK_WriteReg(PSP, 0x20001000)  returns 0x00 (0007ms, 4840ms total)
T23A0 005:063 JLINK_WriteReg(CFBP, 0x00000000)  returns 0x00 (0022ms, 4865ms total)
T23A0 005:087 JLINK_SetBPEx(Addr = 0x20000000, Type = 0xFFFFFFF2)  returns 0x00000002 (0006ms, 4873ms total)
T23A0 005:094 JLINK_Go() -- CPU_ReadMem(4 bytes @ 0xE0001000) -- CPU_WriteMem(4 bytes @ 0xE0001000) (0268ms, 5142ms total)
T23A0 005:364 JLINK_IsHalted() -- CPU_ReadMem(2 bytes @ 0x20000000)  returns TRUE (0039ms, 5183ms total)
T23A0 005:406 JLINK_ReadReg(R15 (PC))  returns 0x20000000 (0019ms, 5163ms total)
T23A0 005:428 JLINK_ClrBPEx(BPHandle = 0x00000002)  returns 0x00 (0036ms, 5202ms total)
T23A0 005:466 JLINK_ReadReg(R0)  returns 0x00000001 (0005ms, 5209ms total)
T23A0 005:473 JLINK_WriteReg(R0, 0x00000000)  returns 0x00 (0006ms, 5217ms total)
T23A0 005:482 JLINK_WriteReg(R1, 0x00004000)  returns 0x00 (0005ms, 5225ms total)
T23A0 005:491 JLINK_WriteReg(R2, 0x000000FF)  returns 0x00 (0010ms, 5239ms total)
T23A0 005:519 JLINK_WriteReg(R3, 0x00000000)  returns 0x00 (0008ms, 5262ms total)
T23A0 005:528 JLINK_WriteReg(R4, 0x00000000)  returns 0x00 (0008ms, 5271ms total)
T23A0 005:538 JLINK_WriteReg(R5, 0x00000000)  returns 0x00 (0008ms, 5281ms total)
T23A0 005:548 JLINK_WriteReg(R6, 0x00000000)  returns 0x00 (0009ms, 5292ms total)
T23A0 005:561 JLINK_WriteReg(R7, 0x00000000)  returns 0x00 (0038ms, 5334ms total)
T23A0 005:601 JLINK_WriteReg(R8, 0x00000000)  returns 0x00 (0005ms, 5341ms total)
T23A0 005:608 JLINK_WriteReg(R9, 0x200000F4)  returns 0x00 (0056ms, 5399ms total)
T23A0 005:667 JLINK_WriteReg(R10, 0x00000000)  returns 0x00 (0041ms, 5443ms total)
T23A0 005:712 JLINK_WriteReg(R11, 0x00000000)  returns 0x00 (0019ms, 5466ms total)
T23A0 005:734 JLINK_WriteReg(R12, 0x00000000)  returns 0x00 (0028ms, 5497ms total)
T23A0 005:764 JLINK_WriteReg(R13 (SP), 0x20001000)  returns 0x00 (0006ms, 5505ms total)
T23A0 005:772 JLINK_WriteReg(R14, 0x20000001)  returns 0x00 (0005ms, 5512ms total)
T23A0 005:779 JLINK_WriteReg(R15 (PC), 0x2000005A)  returns 0x00 (0018ms, 5532ms total)
T23A0 005:799 JLINK_WriteReg(XPSR, 0x01000000)  returns 0x00 (0006ms, 5540ms total)
T23A0 005:820 JLINK_WriteReg(MSP, 0x20001000)  returns 0x00 (0015ms, 5570ms total)
T23A0 005:875 JLINK_WriteReg(PSP, 0x20001000)  returns 0x00 (0009ms, 5619ms total)
T23A0 005:886 JLINK_WriteReg(CFBP, 0x00000000)  returns 0x00 (0005ms, 5626ms total)
T23A0 005:892 JLINK_SetBPEx(Addr = 0x20000000, Type = 0xFFFFFFF2)  returns 0x00000003 (0007ms, 5634ms total)
T23A0 005:900 JLINK_Go() -- CPU_ReadMem(4 bytes @ 0xE0001000) -- CPU_WriteMem(4 bytes @ 0xE0001000) (0360ms, 5995ms total)
T23A0 006:279 JLINK_IsHalted() -- CPU_ReadMem(2 bytes @ 0x20000000)  returns TRUE (0350ms, 6347ms total)
T23A0 006:635 JLINK_ReadReg(R15 (PC))  returns 0x20000000 (0006ms, 6359ms total)
T23A0 006:643 JLINK_ClrBPEx(BPHandle = 0x00000003)  returns 0x00 (0007ms, 6368ms total)
T23A0 006:651 JLINK_ReadReg(R0)  returns 0x00000000 (0067ms, 6436ms total)
T23A0 006:720 JLINK_WriteReg(R0, 0x00000001)  returns 0x00 (0006ms, 6443ms total)
T23A0 006:728 JLINK_WriteReg(R1, 0x00004000)  returns 0x00 (0005ms, 6450ms total)
T23A0 006:735 JLINK_WriteReg(R2, 0x000000FF)  returns 0x00 (0005ms, 6457ms total)
T23A0 006:745 JLINK_WriteReg(R3, 0x00000000)  returns 0x00 (0012ms, 6474ms total)
T23A0 006:820 JLINK_WriteReg(R4, 0x00000000)  returns 0x00 (0005ms, 6536ms total)
T23A0 006:827 JLINK_WriteReg(R5, 0x00000000)  returns 0x00 (0005ms, 6543ms total)
T23A0 006:834 JLINK_WriteReg(R6, 0x00000000)  returns 0x00 (0009ms, 6554ms total)
T23A0 006:846 JLINK_WriteReg(R7, 0x00000000)  returns 0x00 (0028ms, 6585ms total)
T23A0 006:885 JLINK_WriteReg(R8, 0x00000000)  returns 0x00 (0010ms, 6606ms total)
T23A0 006:897 JLINK_WriteReg(R9, 0x200000F4)  returns 0x00 (0008ms, 6616ms total)
T23A0 006:939 JLINK_WriteReg(R10, 0x00000000)  returns 0x00 (0013ms, 6650ms total)
T23A0 006:961 JLINK_WriteReg(R11, 0x00000000)  returns 0x00 (0007ms, 6666ms total)
T23A0 006:970 JLINK_WriteReg(R12, 0x00000000)  returns 0x00 (0005ms, 6673ms total)
T23A0 006:980 JLINK_WriteReg(R13 (SP), 0x20001000)  returns 0x00 (0041ms, 6719ms total)
T23A0 007:025 JLINK_WriteReg(R14, 0x20000001)  returns 0x00 (0007ms, 6730ms total)
T23A0 007:034 JLINK_WriteReg(R15 (PC), 0x20000056)  returns 0x00 (0005ms, 6737ms total)
T23A0 007:042 JLINK_WriteReg(XPSR, 0x01000000)  returns 0x00 (0005ms, 6745ms total)
T23A0 007:049 JLINK_WriteReg(MSP, 0x20001000)  returns 0x00 (0035ms, 6782ms total)
T23A0 007:086 JLINK_WriteReg(PSP, 0x20001000)  returns 0x00 (0031ms, 6815ms total)
T23A0 007:119 JLINK_WriteReg(CFBP, 0x00000000)  returns 0x00 (0007ms, 6824ms total)
T23A0 007:128 JLINK_SetBPEx(Addr = 0x20000000, Type = 0xFFFFFFF2)  returns 0x00000004 (0012ms, 6838ms total)
T23A0 007:142 JLINK_Go() -- CPU_ReadMem(4 bytes @ 0xE0001000) -- CPU_WriteMem(4 bytes @ 0xE0001000) (0107ms, 6947ms total)
T23A0 007:251 JLINK_IsHalted() -- CPU_ReadMem(2 bytes @ 0x20000000)  returns TRUE (0100ms, 7048ms total)
T23A0 007:373 JLINK_ReadReg(R15 (PC))  returns 0x20000000 (0008ms, 6956ms total)
T23A0 007:384 JLINK_ClrBPEx(BPHandle = 0x00000004)  returns 0x00 (0027ms, 6986ms total)
T23A0 007:423 JLINK_ReadReg(R0)  returns 0x00000000 (0023ms, 7021ms total)
T23A0 007:526 JLINK_WriteMem(0x20000000, 0x00FC Bytes, ...) - Data: 00 BE 0A E0 0D 78 2D 06 68 40 08 24 40 00 00 D3 ... -- CPU_WriteMem(252 bytes @ 0x20000000)  returns 0xFC (0014ms, 7037ms total)
T23A0 007:542 JLINK_WriteReg(R0, 0x00000000)  returns 0x00 (0005ms, 7044ms total)
T23A0 007:551 JLINK_WriteReg(R1, 0x00B71B00)  returns 0x00 (0017ms, 7065ms total)
T23A0 007:572 JLINK_WriteReg(R2, 0x00000002)  returns 0x00 (0020ms, 7089ms total)
T23A0 007:594 JLINK_WriteReg(R3, 0x00000000)  returns 0x00 (0006ms, 7097ms total)
T23A0 007:602 JLINK_WriteReg(R4, 0x00000000)  returns 0x00 (0006ms, 7105ms total)
T23A0 007:610 JLINK_WriteReg(R5, 0x00000000)  returns 0x00 (0017ms, 7124ms total)
T23A0 007:631 JLINK_WriteReg(R6, 0x00000000)  returns 0x00 (0017ms, 7145ms total)
T23A0 007:650 JLINK_WriteReg(R7, 0x00000000)  returns 0x00 (0005ms, 7152ms total)
T23A0 007:658 JLINK_WriteReg(R8, 0x00000000)  returns 0x00 (0023ms, 7177ms total)
T23A0 007:687 JLINK_WriteReg(R9, 0x200000F4)  returns 0x00 (0016ms, 7196ms total)
T23A0 007:705 JLINK_WriteReg(R10, 0x00000000)  returns 0x00 (0007ms, 7205ms total)
T23A0 007:713 JLINK_WriteReg(R11, 0x00000000)  returns 0x00 (0018ms, 7224ms total)
T23A0 007:733 JLINK_WriteReg(R12, 0x00000000)  returns 0x00 (0006ms, 7232ms total)
T23A0 007:741 JLINK_WriteReg(R13 (SP), 0x20001000)  returns 0x00 (0005ms, 7238ms total)
T23A0 007:748 JLINK_WriteReg(R14, 0x20000001)  returns 0x00 (0007ms, 7247ms total)
T23A0 007:757 JLINK_WriteReg(R15 (PC), 0x20000038)  returns 0x00 (0005ms, 7254ms total)
T23A0 007:768 JLINK_WriteReg(XPSR, 0x01000000)  returns 0x00 (0023ms, 7283ms total)
T23A0 007:794 JLINK_WriteReg(MSP, 0x20001000)  returns 0x00 (0033ms, 7318ms total)
T23A0 007:829 JLINK_WriteReg(PSP, 0x20001000)  returns 0x00 (0006ms, 7326ms total)
T23A0 007:840 JLINK_WriteReg(CFBP, 0x00000000)  returns 0x00 (0032ms, 7363ms total)
T23A0 007:874 JLINK_SetBPEx(Addr = 0x20000000, Type = 0xFFFFFFF2) -- CPU_ReadMem(2 bytes @ 0x20000000)  returns 0x00000005 (0029ms, 7394ms total)
T23A0 007:905 JLINK_Go() -- CPU_WriteMem(2 bytes @ 0x20000000) -- CPU_ReadMem(4 bytes @ 0xE0001000) -- CPU_WriteMem(4 bytes @ 0xE0001000) (0066ms, 7462ms total)
T23A0 007:974 JLINK_IsHalted() -- CPU_ReadMem(2 bytes @ 0x20000000)  returns TRUE (0032ms, 7497ms total)
T23A0 008:007 JLINK_ReadReg(R15 (PC))  returns 0x20000000 (0006ms, 7471ms total)
T23A0 008:020 JLINK_ClrBPEx(BPHandle = 0x00000005)  returns 0x00 (0015ms, 7493ms total)
T23A0 008:037 JLINK_ReadReg(R0)  returns 0x00000000 (0007ms, 7502ms total)
T23A0 008:054 JLINK_WriteMem(0x200000FC, 0x0040 Bytes, ...) - Data: 60 58 00 20 2D 01 00 00 31 01 00 00 33 01 00 00 ... -- CPU_WriteMem(64 bytes @ 0x200000FC)  returns 0x40 (0012ms, 7523ms total)
T23A0 008:067 JLINK_WriteReg(R0, 0x00000000)  returns 0x00 (0012ms, 7536ms total)
T23A0 008:081 JLINK_WriteReg(R1, 0x00000040)  returns 0x00 (0011ms, 7549ms total)
T23A0 008:095 JLINK_WriteReg(R2, 0x200000FC)  returns 0x00 (0019ms, 7571ms total)
T23A0 008:117 JLINK_WriteReg(R3, 0x00000000)  returns 0x00 (0018ms, 7592ms total)
T23A0 008:137 JLINK_WriteReg(R4, 0x00000000)  returns 0x00 (0008ms, 7602ms total)
T23A0 008:148 JLINK_WriteReg(R5, 0x00000000)  returns 0x00 (0007ms, 7612ms total)
T23A0 008:157 JLINK_WriteReg(R6, 0x00000000)  returns 0x00 (0006ms, 7620ms total)
T23A0 008:165 JLINK_WriteReg(R7, 0x00000000)  returns 0x00 (0006ms, 7628ms total)
T23A0 008:173 JLINK_WriteReg(R8, 0x00000000)  returns 0x00 (0005ms, 7635ms total)
T23A0 008:181 JLINK_WriteReg(R9, 0x200000F4)  returns 0x00 (0036ms, 7674ms total)
T23A0 008:222 JLINK_WriteReg(R10, 0x00000000)  returns 0x00 (0021ms, 7698ms total)
T23A0 008:246 JLINK_WriteReg(R11, 0x00000000)  returns 0x00 (0026ms, 7727ms total)
T23A0 008:274 JLINK_WriteReg(R12, 0x00000000)  returns 0x00 (0006ms, 7735ms total)
T23A0 008:282 JLINK_WriteReg(R13 (SP), 0x20001000)  returns 0x00 (0018ms, 7755ms total)
T23A0 008:322 JLINK_WriteReg(R14, 0x20000001)  returns 0x00 (0010ms, 7787ms total)
T23A0 008:334 JLINK_WriteReg(R15 (PC), 0x200000A6)  returns 0x00 (0038ms, 7827ms total)
T23A0 008:390 JLINK_WriteReg(XPSR, 0x01000000)  returns 0x00 (0010ms, 7855ms total)
T23A0 008:403 JLINK_WriteReg(MSP, 0x20001000)  returns 0x00 (0014ms, 7872ms total)
T23A0 008:423 JLINK_WriteReg(PSP, 0x20001000)  returns 0x00 (0006ms, 7884ms total)
T23A0 008:455 JLINK_WriteReg(CFBP, 0x00000000)  returns 0x00 (0008ms, 7918ms total)
T23A0 008:466 JLINK_SetBPEx(Addr = 0x20000000, Type = 0xFFFFFFF2)  returns 0x00000006 (0006ms, 7927ms total)
T23A0 008:473 JLINK_Go() -- CPU_ReadMem(4 bytes @ 0xE0001000) -- CPU_WriteMem(4 bytes @ 0xE0001000) (0030ms, 7958ms total)
T23A0 008:509 JLINK_IsHalted() -- CPU_ReadMem(2 bytes @ 0x20000000)  returns TRUE (0019ms, 7983ms total)
T23A0 008:530 JLINK_ReadReg(R15 (PC))  returns 0x20000000 (0016ms, 7980ms total)
T23A0 008:548 JLINK_ClrBPEx(BPHandle = 0x00000006)  returns 0x00 (0006ms, 7988ms total)
T23A0 008:556 JLINK_ReadReg(R0)  returns 0x00000000 (0010ms, 8000ms total)
T23A0 008:568 JLINK_WriteMem(0x200000FC, 0x0040 Bytes, ...) - Data: 3B 01 00 00 3B 01 00 00 3B 01 00 00 3B 01 00 00 ... -- CPU_WriteMem(64 bytes @ 0x200000FC)  returns 0x40 (0021ms, 8022ms total)
T23A0 008:590 JLINK_WriteReg(R0, 0x00000040)  returns 0x00 (0020ms, 8043ms total)
T23A0 008:613 JLINK_WriteReg(R1, 0x00000040)  returns 0x00 (0006ms, 8052ms total)
T23A0 008:621 JLINK_WriteReg(R2, 0x200000FC)  returns 0x00 (0010ms, 8064ms total)
T23A0 008:634 JLINK_WriteReg(R3, 0x00000000)  returns 0x00 (0007ms, 8074ms total)
T23A0 008:644 JLINK_WriteReg(R4, 0x00000000)  returns 0x00 (0006ms, 8083ms total)
T23A0 008:652 JLINK_WriteReg(R5, 0x00000000)  returns 0x00 (0032ms, 8117ms total)
T23A0 008:686 JLINK_WriteReg(R6, 0x00000000)  returns 0x00 (0006ms, 8125ms total)
T23A0 008:694 JLINK_WriteReg(R7, 0x00000000)  returns 0x00 (0005ms, 8132ms total)
T23A0 008:702 JLINK_WriteReg(R8, 0x00000000)  returns 0x00 (0019ms, 8154ms total)
T23A0 008:724 JLINK_WriteReg(R9, 0x200000F4)  returns 0x00 (0017ms, 8174ms total)
T23A0 008:746 JLINK_WriteReg(R10, 0x00000000)  returns 0x00 (0008ms, 8184ms total)
T23A0 008:767 JLINK_WriteReg(R11, 0x00000000)  returns 0x00 (0014ms, 8211ms total)
T23A0 008:783 JLINK_WriteReg(R12, 0x00000000)  returns 0x00 (0005ms, 8218ms total)
T23A0 008:791 JLINK_WriteReg(R13 (SP), 0x20001000)  returns 0x00 (0006ms, 8227ms total)
T23A0 008:799 JLINK_WriteReg(R14, 0x20000001)  returns 0x00 (0026ms, 8255ms total)
T23A0 008:827 JLINK_WriteReg(R15 (PC), 0x200000A6)  returns 0x00 (0008ms, 8265ms total)
T23A0 008:847 JLINK_WriteReg(XPSR, 0x01000000)  returns 0x00 (0027ms, 8304ms total)
T23A0 008:877 JLINK_WriteReg(MSP, 0x20001000)  returns 0x00 (0026ms, 8333ms total)
T23A0 008:907 JLINK_WriteReg(PSP, 0x20001000)  returns 0x00 (0060ms, 8396ms total)
T23A0 008:970 JLINK_WriteReg(CFBP, 0x00000000)  returns 0x00 (0006ms, 8405ms total)
T23A0 008:977 JLINK_SetBPEx(Addr = 0x20000000, Type = 0xFFFFFFF2)  returns 0x00000007 (0031ms, 8437ms total)
T23A0 009:181 JLINK_Go() -- CPU_ReadMem(4 bytes @ 0xE0001000) -- CPU_WriteMem(4 bytes @ 0xE0001000) (0497ms, 9107ms total)
T23A0 009:681 JLINK_IsHalted() -- CPU_ReadMem(2 bytes @ 0x20000000)  returns TRUE (0025ms, 9134ms total)
T23A0 009:708 JLINK_ReadReg(R15 (PC))  returns 0x20000000 (0006ms, 9115ms total)
T23A0 009:716 JLINK_ClrBPEx(BPHandle = 0x00000007)  returns 0x00 (0006ms, 9123ms total)
T23A0 009:786 JLINK_ReadReg(R0)  returns 0x00000000 (0015ms, 9187ms total)
T23A0 009:806 JLINK_WriteMem(0x200000FC, 0x0040 Bytes, ...) - Data: 3B 01 00 00 3B 01 00 00 3B 01 00 00 3B 01 00 00 ... -- CPU_WriteMem(64 bytes @ 0x200000FC)  returns 0x40 (0013ms, 9201ms total)
T23A0 009:822 JLINK_WriteReg(R0, 0x00000080)  returns 0x00 (0008ms, 9212ms total)
T23A0 009:832 JLINK_WriteReg(R1, 0x00000040)  returns 0x00 (0005ms, 9219ms total)
T23A0 009:845 JLINK_WriteReg(R2, 0x200000FC)  returns 0x00 (0007ms, 9228ms total)
T23A0 009:854 JLINK_WriteReg(R3, 0x00000000)  returns 0x00 (0009ms, 9239ms total)
T23A0 009:865 JLINK_WriteReg(R4, 0x00000000)  returns 0x00 (0007ms, 9248ms total)
T23A0 009:874 JLINK_WriteReg(R5, 0x00000000)  returns 0x00 (0050ms, 9300ms total)
T23A0 009:940 JLINK_WriteReg(R6, 0x00000000)  returns 0x00 (0007ms, 9319ms total)
T23A0 009:949 JLINK_WriteReg(R7, 0x00000000)  returns 0x00 (0083ms, 9404ms total)
T23A0 010:039 JLINK_WriteReg(R8, 0x00000000)  returns 0x00 (0023ms, 9434ms total)
T23A0 010:064 JLINK_WriteReg(R9, 0x200000F4)  returns 0x00 (0006ms, 9442ms total)
T23A0 010:072 JLINK_WriteReg(R10, 0x00000000)  returns 0x00 (0005ms, 9449ms total)
T23A0 010:079 JLINK_WriteReg(R11, 0x00000000)  returns 0x00 (0006ms, 9457ms total)
T23A0 010:087 JLINK_WriteReg(R12, 0x00000000)  returns 0x00 (0024ms, 9483ms total)
T23A0 010:115 JLINK_WriteReg(R13 (SP), 0x20001000)  returns 0x00 (0019ms, 9506ms total)
T23A0 010:136 JLINK_WriteReg(R14, 0x20000001)  returns 0x00 (0006ms, 9514ms total)
T23A0 010:144 JLINK_WriteReg(R15 (PC), 0x200000A6)  returns 0x00 (0024ms, 9540ms total)
T23A0 010:187 JLINK_WriteReg(XPSR, 0x01000000)  returns 0x00 (0006ms, 9565ms total)
T23A0 010:195 JLINK_WriteReg(MSP, 0x20001000)  returns 0x00 (0006ms, 9573ms total)
T23A0 010:203 JLINK_WriteReg(PSP, 0x20001000)  returns 0x00 (0006ms, 9581ms total)
T23A0 010:212 JLINK_WriteReg(CFBP, 0x00000000)  returns 0x00 (0012ms, 9596ms total)
T23A0 010:229 JLINK_SetBPEx(Addr = 0x20000000, Type = 0xFFFFFFF2)  returns 0x00000008 (0005ms, 9603ms total)
T23A0 010:235 JLINK_Go() -- CPU_ReadMem(4 bytes @ 0xE0001000) -- CPU_WriteMem(4 bytes @ 0xE0001000) (0042ms, 9646ms total)
T23A0 010:287 JLINK_IsHalted() -- CPU_ReadMem(2 bytes @ 0x20000000)  returns TRUE (0035ms, 9691ms total)
T23A0 010:335 JLINK_ReadReg(R15 (PC))  returns 0x20000000 (0006ms, 9662ms total)
T23A0 010:350 JLINK_ClrBPEx(BPHandle = 0x00000008)  returns 0x00 (0022ms, 9693ms total)
T23A0 010:377 JLINK_ReadReg(R0)  returns 0x00000000 (0017ms, 9714ms total)
T23A0 010:396 JLINK_WriteMem(0x200000FC, 0x0040 Bytes, ...) - Data: AC 42 01 D1 00 F0 22 F8 7E 46 0F 3E 0F CC B6 46 ... -- CPU_WriteMem(64 bytes @ 0x200000FC)  returns 0x40 (0016ms, 9732ms total)
T23A0 010:414 JLINK_WriteReg(R0, 0x000000C0)  returns 0x00 (0007ms, 9741ms total)
T23A0 010:423 JLINK_WriteReg(R1, 0x00000040)  returns 0x00 (0017ms, 9760ms total)
T23A0 010:442 JLINK_WriteReg(R2, 0x200000FC)  returns 0x00 (0005ms, 9767ms total)
T23A0 010:449 JLINK_WriteReg(R3, 0x00000000)  returns 0x00 (0007ms, 9776ms total)
T23A0 010:459 JLINK_WriteReg(R4, 0x00000000)  returns 0x00 (0018ms, 9797ms total)
T23A0 010:479 JLINK_WriteReg(R5, 0x00000000)  returns 0x00 (0006ms, 9805ms total)
T23A0 010:487 JLINK_WriteReg(R6, 0x00000000)  returns 0x00 (0005ms, 9812ms total)
T23A0 010:494 JLINK_WriteReg(R7, 0x00000000)  returns 0x00 (0006ms, 9820ms total)
T23A0 010:504 JLINK_WriteReg(R8, 0x00000000)  returns 0x00 (0005ms, 9829ms total)
T23A0 010:514 JLINK_WriteReg(R9, 0x200000F4)  returns 0x00 (0019ms, 9852ms total)
T23A0 010:546 JLINK_WriteReg(R10, 0x00000000)  returns 0x00 (0007ms, 9872ms total)
T23A0 010:555 JLINK_WriteReg(R11, 0x00000000)  returns 0x00 (0006ms, 9880ms total)
T23A0 010:563 JLINK_WriteReg(R12, 0x00000000)  returns 0x00 (0006ms, 9888ms total)
T23A0 010:571 JLINK_WriteReg(R13 (SP), 0x20001000)  returns 0x00 (0019ms, 9909ms total)
T23A0 010:607 JLINK_WriteReg(R14, 0x20000001)  returns 0x00 (0008ms, 9934ms total)
T23A0 010:616 JLINK_WriteReg(R15 (PC), 0x200000A6)  returns 0x00 (0031ms, 9966ms total)
T23A0 010:649 JLINK_WriteReg(XPSR, 0x01000000)  returns 0x00 (0009ms, 9977ms total)
T23A0 010:659 JLINK_WriteReg(MSP, 0x20001000)  returns 0x00 (0007ms, 9985ms total)
T23A0 010:668 JLINK_WriteReg(PSP, 0x20001000)  returns 0x00 (0011ms, 9998ms total)
T23A0 010:696 JLINK_WriteReg(CFBP, 0x00000000)  returns 0x00 (0021ms, 10035ms total)
T23A0 010:729 JLINK_SetBPEx(Addr = 0x20000000, Type = 0xFFFFFFF2)  returns 0x00000009 (0021ms, 10068ms total)
T23A0 010:752 JLINK_Go() -- CPU_ReadMem(4 bytes @ 0xE0001000) -- CPU_WriteMem(4 bytes @ 0xE0001000) (0039ms, 10109ms total)
T23A0 010:793 JLINK_IsHalted() -- CPU_ReadMem(2 bytes @ 0x20000000)  returns TRUE (0018ms, 10129ms total)
T23A0 010:813 JLINK_ReadReg(R15 (PC))  returns 0x20000000 (0009ms, 10120ms total)
T23A0 010:825 JLINK_ClrBPEx(BPHandle = 0x00000009)  returns 0x00 (0020ms, 10143ms total)
T23A0 010:847 JLINK_ReadReg(R0)  returns 0x00000000 (0019ms, 10164ms total)
T23A0 010:892 JLINK_WriteMem(0x200000FC, 0x0040 Bytes, ...) - Data: 0B 60 70 47 1F B5 1F BD 10 B5 10 BD 00 F0 27 F8 ... -- CPU_WriteMem(64 bytes @ 0x200000FC)  returns 0x40 (0034ms, 10214ms total)
T23A0 010:929 JLINK_WriteReg(R0, 0x00000100)  returns 0x00 (0009ms, 10226ms total)
T23A0 010:939 JLINK_WriteReg(R1, 0x00000040)  returns 0x00 (0007ms, 10234ms total)
T23A0 010:948 JLINK_WriteReg(R2, 0x200000FC)  returns 0x00 (0005ms, 10241ms total)
T23A0 010:955 JLINK_WriteReg(R3, 0x00000000)  returns 0x00 (0005ms, 10248ms total)
T23A0 010:963 JLINK_WriteReg(R4, 0x00000000)  returns 0x00 (0006ms, 10257ms total)
T23A0 010:971 JLINK_WriteReg(R5, 0x00000000)  returns 0x00 (0005ms, 10264ms total)
T23A0 010:979 JLINK_WriteReg(R6, 0x00000000)  returns 0x00 (0006ms, 10273ms total)
T23A0 010:987 JLINK_WriteReg(R7, 0x00000000)  returns 0x00 (0019ms, 10294ms total)
T23A0 011:011 JLINK_WriteReg(R8, 0x00000000)  returns 0x00 (0009ms, 10308ms total)
T23A0 011:032 JLINK_WriteReg(R9, 0x200000F4)  returns 0x00 (0005ms, 10325ms total)
T23A0 011:039 JLINK_WriteReg(R10, 0x00000000)  returns 0x00 (0007ms, 10334ms total)
T23A0 011:047 JLINK_WriteReg(R11, 0x00000000)  returns 0x00 (0010ms, 10345ms total)
T23A0 011:059 JLINK_WriteReg(R12, 0x00000000)  returns 0x00 (0007ms, 10354ms total)
T23A0 011:083 JLINK_WriteReg(R13 (SP), 0x20001000)  returns 0x00 (0030ms, 10401ms total)
T23A0 011:117 JLINK_WriteReg(R14, 0x20000001)  returns 0x00 (0008ms, 10413ms total)
T23A0 011:128 JLINK_WriteReg(R15 (PC), 0x200000A6)  returns 0x00 (0031ms, 10447ms total)
T23A0 011:162 JLINK_WriteReg(XPSR, 0x01000000)  returns 0x00 (0019ms, 10468ms total)
T23A0 011:185 JLINK_WriteReg(MSP, 0x20001000)  returns 0x00 (0005ms, 10476ms total)
T23A0 011:197 JLINK_WriteReg(PSP, 0x20001000)  returns 0x00 (0008ms, 10491ms total)
T23A0 011:209 JLINK_WriteReg(CFBP, 0x00000000)  returns 0x00 (0021ms, 10516ms total)
T23A0 011:233 JLINK_SetBPEx(Addr = 0x20000000, Type = 0xFFFFFFF2)  returns 0x0000000A (0013ms, 10532ms total)
T23A0 011:248 JLINK_Go() -- CPU_ReadMem(4 bytes @ 0xE0001000) -- CPU_WriteMem(4 bytes @ 0xE0001000) (0029ms, 10563ms total)
T23A0 011:287 JLINK_IsHalted() -- CPU_ReadMem(2 bytes @ 0x20000000)  returns TRUE (0031ms, 10604ms total)
T23A0 011:319 JLINK_ReadReg(R15 (PC))  returns 0x20000000 (0021ms, 10594ms total)
T23A0 011:342 JLINK_ClrBPEx(BPHandle = 0x0000000A)  returns 0x00 (0005ms, 10601ms total)
T23A0 011:349 JLINK_ReadReg(R0)  returns 0x00000000 (0006ms, 10609ms total)
T23A0 011:359 JLINK_WriteMem(0x200000FC, 0x0040 Bytes, ...) - Data: 02 4A 04 4B 70 47 00 00 A5 00 00 00 60 00 00 20 ... -- CPU_WriteMem(64 bytes @ 0x200000FC)  returns 0x40 (0023ms, 10636ms total)
T23A0 011:396 JLINK_WriteReg(R0, 0x00000140)  returns 0x00 (0006ms, 10656ms total)
T23A0 011:404 JLINK_WriteReg(R1, 0x00000040)  returns 0x00 (0006ms, 10664ms total)
T23A0 011:412 JLINK_WriteReg(R2, 0x200000FC)  returns 0x00 (0008ms, 10674ms total)
T23A0 011:422 JLINK_WriteReg(R3, 0x00000000)  returns 0x00 (0008ms, 10684ms total)
T23A0 011:432 JLINK_WriteReg(R4, 0x00000000)  returns 0x00 (0006ms, 10692ms total)
T23A0 011:440 JLINK_WriteReg(R5, 0x00000000)  returns 0x00 (0019ms, 10713ms total)
T23A0 011:462 JLINK_WriteReg(R6, 0x00000000)  returns 0x00 (0019ms, 10735ms total)
T23A0 011:483 JLINK_WriteReg(R7, 0x00000000)  returns 0x00 (0006ms, 10743ms total)
T23A0 011:491 JLINK_WriteReg(R8, 0x00000000)  returns 0x00 (0006ms, 10751ms total)
T23A0 011:500 JLINK_WriteReg(R9, 0x200000F4)  returns 0x00 (0006ms, 10760ms total)
T23A0 011:515 JLINK_WriteReg(R10, 0x00000000)  returns 0x00 (0017ms, 10786ms total)
T23A0 011:534 JLINK_WriteReg(R11, 0x00000000)  returns 0x00 (0008ms, 10796ms total)
T23A0 011:545 JLINK_WriteReg(R12, 0x00000000)  returns 0x00 (0007ms, 10806ms total)
T23A0 011:556 JLINK_WriteReg(R13 (SP), 0x20001000)  returns 0x00 (0020ms, 10830ms total)
T23A0 011:578 JLINK_WriteReg(R14, 0x20000001)  returns 0x00 (0007ms, 10839ms total)
T23A0 011:587 JLINK_WriteReg(R15 (PC), 0x200000A6)  returns 0x00 (0007ms, 10848ms total)
T23A0 011:599 JLINK_WriteReg(XPSR, 0x01000000)  returns 0x00 (0016ms, 10869ms total)
T23A0 011:617 JLINK_WriteReg(MSP, 0x20001000)  returns 0x00 (0018ms, 10889ms total)
T23A0 011:641 JLINK_WriteReg(PSP, 0x20001000)  returns 0x00 (0005ms, 10900ms total)
T23A0 011:648 JLINK_WriteReg(CFBP, 0x00000000)  returns 0x00 (0020ms, 10922ms total)
T23A0 011:670 JLINK_SetBPEx(Addr = 0x20000000, Type = 0xFFFFFFF2)  returns 0x0000000B (0009ms, 10933ms total)
T23A0 011:681 JLINK_Go() -- CPU_ReadMem(4 bytes @ 0xE0001000) -- CPU_WriteMem(4 bytes @ 0xE0001000) (0060ms, 10995ms total)
T23A0 011:752 JLINK_IsHalted() -- CPU_ReadMem(2 bytes @ 0x20000000)  returns TRUE (0025ms, 11031ms total)
T23A0 011:779 JLINK_ReadReg(R15 (PC))  returns 0x20000000 (0006ms, 11012ms total)
T23A0 011:787 JLINK_ClrBPEx(BPHandle = 0x0000000B)  returns 0x00 (0006ms, 11020ms total)
T23A0 011:795 JLINK_ReadReg(R0)  returns 0x00000000 (0005ms, 11027ms total)
T23A0 011:802 JLINK_WriteMem(0x200000FC, 0x0040 Bytes, ...) - Data: B6 46 00 26 C0 C5 C0 C5 C0 C5 C0 C5 C0 C5 C0 C5 ... -- CPU_WriteMem(64 bytes @ 0x200000FC)  returns 0x40 (0040ms, 11069ms total)
T23A0 011:844 JLINK_WriteReg(R0, 0x00000180)  returns 0x00 (0006ms, 11077ms total)
T23A0 011:852 JLINK_WriteReg(R1, 0x00000040)  returns 0x00 (0007ms, 11086ms total)
T23A0 011:876 JLINK_WriteReg(R2, 0x200000FC)  returns 0x00 (0005ms, 11108ms total)
T23A0 011:883 JLINK_WriteReg(R3, 0x00000000)  returns 0x00 (0006ms, 11116ms total)
T23A0 011:891 JLINK_WriteReg(R4, 0x00000000)  returns 0x00 (0006ms, 11124ms total)
T23A0 011:898 JLINK_WriteReg(R5, 0x00000000)  returns 0x00 (0007ms, 11132ms total)
T23A0 011:906 JLINK_WriteReg(R6, 0x00000000)  returns 0x00 (0023ms, 11156ms total)
T23A0 011:931 JLINK_WriteReg(R7, 0x00000000)  returns 0x00 (0014ms, 11172ms total)
T23A0 011:946 JLINK_WriteReg(R8, 0x00000000)  returns 0x00 (0006ms, 11179ms total)
T23A0 011:957 JLINK_WriteReg(R9, 0x200000F4)  returns 0x00 (0009ms, 11190ms total)
T23A0 011:982 JLINK_WriteReg(R10, 0x00000000)  returns 0x00 (0022ms, 11228ms total)
T23A0 012:020 JLINK_WriteReg(R11, 0x00000000)  returns 0x00 (0010ms, 11254ms total)
T23A0 012:047 JLINK_WriteReg(R12, 0x00000000)  returns 0x00 (0020ms, 11291ms total)
T23A0 012:069 JLINK_WriteReg(R13 (SP), 0x20001000)  returns 0x00 (0020ms, 11313ms total)
T23A0 012:090 JLINK_WriteReg(R14, 0x20000001)  returns 0x00 (0006ms, 11320ms total)
T23A0 012:098 JLINK_WriteReg(R15 (PC), 0x200000A6)  returns 0x00 (0023ms, 11345ms total)
T23A0 012:123 JLINK_WriteReg(XPSR, 0x01000000)  returns 0x00 (0006ms, 11353ms total)
T23A0 012:144 JLINK_WriteReg(MSP, 0x20001000)  returns 0x00 (0006ms, 11374ms total)
T23A0 012:152 JLINK_WriteReg(PSP, 0x20001000)  returns 0x00 (0006ms, 11382ms total)
T23A0 012:160 JLINK_WriteReg(CFBP, 0x00000000)  returns 0x00 (0007ms, 11391ms total)
T23A0 012:169 JLINK_SetBPEx(Addr = 0x20000000, Type = 0xFFFFFFF2)  returns 0x0000000C (0007ms, 11400ms total)
T23A0 012:178 JLINK_Go() -- CPU_ReadMem(4 bytes @ 0xE0001000) -- CPU_WriteMem(4 bytes @ 0xE0001000) (0022ms, 11424ms total)
T23A0 012:205 JLINK_IsHalted() -- CPU_ReadMem(2 bytes @ 0x20000000)  returns TRUE (0044ms, 11473ms total)
T23A0 012:251 JLINK_ReadReg(R15 (PC))  returns 0x20000000 (0005ms, 11434ms total)
T23A0 012:258 JLINK_ClrBPEx(BPHandle = 0x0000000C)  returns 0x00 (0006ms, 11442ms total)
T23A0 012:266 JLINK_ReadReg(R0)  returns 0x00000000 (0010ms, 11454ms total)
T23A0 012:278 JLINK_WriteMem(0x200000FC, 0x0040 Bytes, ...) - Data: 70 47 00 00 00 BF 12 49 49 78 80 22 11 40 00 29 ... -- CPU_WriteMem(64 bytes @ 0x200000FC)  returns 0x40 (0028ms, 11484ms total)
T23A0 012:309 JLINK_WriteReg(R0, 0x000001C0)  returns 0x00 (0005ms, 11492ms total)
T23A0 012:316 JLINK_WriteReg(R1, 0x00000040)  returns 0x00 (0007ms, 11501ms total)
T23A0 012:325 JLINK_WriteReg(R2, 0x200000FC)  returns 0x00 (0009ms, 11512ms total)
T23A0 012:345 JLINK_WriteReg(R3, 0x00000000)  returns 0x00 (0006ms, 11529ms total)
T23A0 012:352 JLINK_WriteReg(R4, 0x00000000)  returns 0x00 (0006ms, 11536ms total)
T23A0 012:360 JLINK_WriteReg(R5, 0x00000000)  returns 0x00 (0008ms, 11546ms total)
T23A0 012:371 JLINK_WriteReg(R6, 0x00000000)  returns 0x00 (0006ms, 11555ms total)
T23A0 012:385 JLINK_WriteReg(R7, 0x00000000)  returns 0x00 (0020ms, 11583ms total)
T23A0 012:407 JLINK_WriteReg(R8, 0x00000000)  returns 0x00 (0006ms, 11591ms total)
T23A0 012:415 JLINK_WriteReg(R9, 0x200000F4)  returns 0x00 (0006ms, 11599ms total)
T23A0 012:424 JLINK_WriteReg(R10, 0x00000000)  returns 0x00 (0009ms, 11611ms total)
T23A0 012:435 JLINK_WriteReg(R11, 0x00000000)  returns 0x00 (0033ms, 11645ms total)
T23A0 012:470 JLINK_WriteReg(R12, 0x00000000)  returns 0x00 (0010ms, 11657ms total)
T23A0 012:482 JLINK_WriteReg(R13 (SP), 0x20001000)  returns 0x00 (0019ms, 11678ms total)
T23A0 012:506 JLINK_WriteReg(R14, 0x20000001)  returns 0x00 (0009ms, 11692ms total)
T23A0 012:517 JLINK_WriteReg(R15 (PC), 0x200000A6)  returns 0x00 (0018ms, 11712ms total)
T23A0 012:537 JLINK_WriteReg(XPSR, 0x01000000)  returns 0x00 (0006ms, 11720ms total)
T23A0 012:547 JLINK_WriteReg(MSP, 0x20001000)  returns 0x00 (0006ms, 11730ms total)
T23A0 012:560 JLINK_WriteReg(PSP, 0x20001000)  returns 0x00 (0007ms, 11744ms total)
T23A0 012:570 JLINK_WriteReg(CFBP, 0x00000000)  returns 0x00 (0017ms, 11764ms total)
T23A0 012:591 JLINK_SetBPEx(Addr = 0x20000000, Type = 0xFFFFFFF2)  returns 0x0000000D (0010ms, 11778ms total)
T23A0 012:604 JLINK_Go() -- CPU_ReadMem(4 bytes @ 0xE0001000) -- CPU_WriteMem(4 bytes @ 0xE0001000) (0062ms, 11842ms total)
T23A0 012:668 JLINK_IsHalted() -- CPU_ReadMem(2 bytes @ 0x20000000)  returns TRUE (0019ms, 11863ms total)
T23A0 012:689 JLINK_ReadReg(R15 (PC))  returns 0x20000000 (0022ms, 11866ms total)
T23A0 012:713 JLINK_ClrBPEx(BPHandle = 0x0000000D)  returns 0x00 (0006ms, 11874ms total)
T23A0 012:734 JLINK_ReadReg(R0)  returns 0x00000000 (0008ms, 11897ms total)
T23A0 012:744 JLINK_WriteMem(0x200000FC, 0x0040 Bytes, ...) - Data: 03 49 49 78 80 22 11 40 00 29 F9 D1 70 47 00 00 ... -- CPU_WriteMem(64 bytes @ 0x200000FC)  returns 0x40 (0028ms, 11927ms total)
T23A0 012:774 JLINK_WriteReg(R0, 0x00000200)  returns 0x00 (0005ms, 11934ms total)
T23A0 012:781 JLINK_WriteReg(R1, 0x00000040)  returns 0x00 (0006ms, 11942ms total)
T23A0 012:806 JLINK_WriteReg(R2, 0x200000FC)  returns 0x00 (0012ms, 11973ms total)
T23A0 012:820 JLINK_WriteReg(R3, 0x00000000)  returns 0x00 (0006ms, 11981ms total)
T23A0 012:829 JLINK_WriteReg(R4, 0x00000000)  returns 0x00 (0006ms, 11990ms total)
T23A0 012:843 JLINK_WriteReg(R5, 0x00000000)  returns 0x00 (0006ms, 11997ms total)
T23A0 012:854 JLINK_WriteReg(R6, 0x00000000)  returns 0x00 (0005ms, 12007ms total)
T23A0 012:861 JLINK_WriteReg(R7, 0x00000000)  returns 0x00 (0006ms, 12015ms total)
T23A0 012:868 JLINK_WriteReg(R8, 0x00000000)  returns 0x00 (0005ms, 12021ms total)
T23A0 012:875 JLINK_WriteReg(R9, 0x200000F4)  returns 0x00 (0006ms, 12029ms total)
T23A0 012:883 JLINK_WriteReg(R10, 0x00000000)  returns 0x00 (0005ms, 12036ms total)
T23A0 012:890 JLINK_WriteReg(R11, 0x00000000)  returns 0x00 (0020ms, 12058ms total)
T23A0 012:912 JLINK_WriteReg(R12, 0x00000000)  returns 0x00 (0008ms, 12068ms total)
T23A0 012:922 JLINK_WriteReg(R13 (SP), 0x20001000)  returns 0x00 (0006ms, 12076ms total)
T23A0 012:931 JLINK_WriteReg(R14, 0x20000001)  returns 0x00 (0006ms, 12085ms total)
T23A0 012:954 JLINK_WriteReg(R15 (PC), 0x200000A6)  returns 0x00 (0013ms, 12115ms total)
T23A0 012:969 JLINK_WriteReg(XPSR, 0x01000000)  returns 0x00 (0006ms, 12123ms total)
T23A0 012:976 JLINK_WriteReg(MSP, 0x20001000)  returns 0x00 (0005ms, 12129ms total)
T23A0 012:986 JLINK_WriteReg(PSP, 0x20001000)  returns 0x00 (0022ms, 12156ms total)
T23A0 013:016 JLINK_WriteReg(CFBP, 0x00000000)  returns 0x00 (0013ms, 12173ms total)
T23A0 013:033 JLINK_SetBPEx(Addr = 0x20000000, Type = 0xFFFFFFF2)  returns 0x0000000E (0006ms, 12183ms total)
T23A0 013:041 JLINK_Go() -- CPU_ReadMem(4 bytes @ 0xE0001000) -- CPU_WriteMem(4 bytes @ 0xE0001000) (0315ms, 12500ms total)
T23A0 013:359 JLINK_IsHalted() -- CPU_ReadMem(2 bytes @ 0x20000000)  returns TRUE (0027ms, 12530ms total)
T23A0 013:388 JLINK_ReadReg(R15 (PC))  returns 0x20000000 (0010ms, 12541ms total)
T23A0 013:402 JLINK_ClrBPEx(BPHandle = 0x0000000E)  returns 0x00 (0006ms, 12551ms total)
T23A0 013:410 JLINK_ReadReg(R0)  returns 0x00000000 (0005ms, 12558ms total)
T23A0 013:418 JLINK_WriteMem(0x200000FC, 0x0040 Bytes, ...) - Data: A2 B0 0A 20 20 90 FF 21 1E 91 FE 22 00 21 1C 92 ... -- CPU_WriteMem(64 bytes @ 0x200000FC)  returns 0x40 (0027ms, 12587ms total)
T23A0 013:447 JLINK_WriteReg(R0, 0x00000240)  returns 0x00 (0019ms, 12608ms total)
T23A0 013:467 JLINK_WriteReg(R1, 0x00000040)  returns 0x00 (0007ms, 12616ms total)
T23A0 013:476 JLINK_WriteReg(R2, 0x200000FC)  returns 0x00 (0005ms, 12622ms total)
T23A0 013:483 JLINK_WriteReg(R3, 0x00000000)  returns 0x00 (0006ms, 12630ms total)
T23A0 013:491 JLINK_WriteReg(R4, 0x00000000)  returns 0x00 (0021ms, 12653ms total)
T23A0 013:514 JLINK_WriteReg(R5, 0x00000000)  returns 0x00 (0011ms, 12666ms total)
T23A0 013:528 JLINK_WriteReg(R6, 0x00000000)  returns 0x00 (0012ms, 12681ms total)
T23A0 013:542 JLINK_WriteReg(R7, 0x00000000)  returns 0x00 (0020ms, 12703ms total)
T23A0 013:564 JLINK_WriteReg(R8, 0x00000000)  returns 0x00 (0006ms, 12711ms total)
T23A0 013:572 JLINK_WriteReg(R9, 0x200000F4)  returns 0x00 (0007ms, 12720ms total)
T23A0 013:580 JLINK_WriteReg(R10, 0x00000000)  returns 0x00 (0007ms, 12728ms total)
T23A0 013:589 JLINK_WriteReg(R11, 0x00000000)  returns 0x00 (0007ms, 12737ms total)
T23A0 013:599 JLINK_WriteReg(R12, 0x00000000)  returns 0x00 (0007ms, 12747ms total)
T23A0 013:611 JLINK_WriteReg(R13 (SP), 0x20001000)  returns 0x00 (0021ms, 12773ms total)
T23A0 013:637 JLINK_WriteReg(R14, 0x20000001)  returns 0x00 (0018ms, 12796ms total)
T23A0 013:657 JLINK_WriteReg(R15 (PC), 0x200000A6)  returns 0x00 (0022ms, 12820ms total)
T23A0 013:685 JLINK_WriteReg(XPSR, 0x01000000)  returns 0x00 (0018ms, 12843ms total)
T23A0 013:705 JLINK_WriteReg(MSP, 0x20001000)  returns 0x00 (0006ms, 12851ms total)
T23A0 013:714 JLINK_WriteReg(PSP, 0x20001000)  returns 0x00 (0007ms, 12861ms total)
T23A0 013:732 JLINK_WriteReg(CFBP, 0x00000000)  returns 0x00 (0007ms, 12879ms total)
T23A0 013:745 JLINK_SetBPEx(Addr = 0x20000000, Type = 0xFFFFFFF2)  returns 0x0000000F (0034ms, 12919ms total)
T23A0 013:782 JLINK_Go() -- CPU_ReadMem(4 bytes @ 0xE0001000) -- CPU_WriteMem(4 bytes @ 0xE0001000) (0058ms, 12979ms total)
T23A0 013:842 JLINK_IsHalted() -- CPU_ReadMem(2 bytes @ 0x20000000)  returns TRUE (0019ms, 13000ms total)
T23A0 013:863 JLINK_ReadReg(R15 (PC))  returns 0x20000000 (0005ms, 12986ms total)
T23A0 013:870 JLINK_ClrBPEx(BPHandle = 0x0000000F)  returns 0x00 (0006ms, 12994ms total)
T23A0 013:877 JLINK_ReadReg(R0)  returns 0x00000000 (0005ms, 13000ms total)
T23A0 013:883 JLINK_WriteMem(0x200000FC, 0x0040 Bytes, ...) - Data: 0F 91 1E 98 02 04 00 21 0D 92 0C 91 1C 9A 13 0E ... -- CPU_WriteMem(64 bytes @ 0x200000FC)  returns 0x40 (0017ms, 13018ms total)
T23A0 013:902 JLINK_WriteReg(R0, 0x00000280)  returns 0x00 (0020ms, 13040ms total)
T23A0 013:925 JLINK_WriteReg(R1, 0x00000040)  returns 0x00 (0019ms, 13062ms total)
T23A0 013:947 JLINK_WriteReg(R2, 0x200000FC)  returns 0x00 (0035ms, 13100ms total)
T23A0 013:984 JLINK_WriteReg(R3, 0x00000000)  returns 0x00 (0027ms, 13129ms total)
T23A0 014:012 JLINK_WriteReg(R4, 0x00000000)  returns 0x00 (0006ms, 13136ms total)
T23A0 014:020 JLINK_WriteReg(R5, 0x00000000)  returns 0x00 (0007ms, 13145ms total)
T23A0 014:029 JLINK_WriteReg(R6, 0x00000000)  returns 0x00 (0005ms, 13152ms total)
T23A0 014:036 JLINK_WriteReg(R7, 0x00000000)  returns 0x00 (0006ms, 13160ms total)
T23A0 014:045 JLINK_WriteReg(R8, 0x00000000)  returns 0x00 (0008ms, 13171ms total)
T23A0 014:054 JLINK_WriteReg(R9, 0x200000F4)  returns 0x00 (0005ms, 13177ms total)
T23A0 014:061 JLINK_WriteReg(R10, 0x00000000)  returns 0x00 (0021ms, 13200ms total)
T23A0 014:096 JLINK_WriteReg(R11, 0x00000000)  returns 0x00 (0006ms, 13220ms total)
T23A0 014:105 JLINK_WriteReg(R12, 0x00000000)  returns 0x00 (0005ms, 13228ms total)
T23A0 014:113 JLINK_WriteReg(R13 (SP), 0x20001000)  returns 0x00 (0028ms, 13259ms total)
T23A0 014:143 JLINK_WriteReg(R14, 0x20000001)  returns 0x00 (0015ms, 13276ms total)
T23A0 014:160 JLINK_WriteReg(R15 (PC), 0x200000A6)  returns 0x00 (0028ms, 13306ms total)
T23A0 014:190 JLINK_WriteReg(XPSR, 0x01000000)  returns 0x00 (0009ms, 13317ms total)
T23A0 014:216 JLINK_WriteReg(MSP, 0x20001000)  returns 0x00 (0007ms, 13341ms total)
T23A0 014:235 JLINK_WriteReg(PSP, 0x20001000)  returns 0x00 (0023ms, 13376ms total)
T23A0 014:260 JLINK_WriteReg(CFBP, 0x00000000)  returns 0x00 (0012ms, 13390ms total)
T23A0 014:273 JLINK_SetBPEx(Addr = 0x20000000, Type = 0xFFFFFFF2)  returns 0x00000010 (0008ms, 13399ms total)
T23A0 014:289 JLINK_Go() -- CPU_ReadMem(4 bytes @ 0xE0001000) -- CPU_WriteMem(4 bytes @ 0xE0001000) (0055ms, 13462ms total)
T23A0 014:358 JLINK_IsHalted() -- CPU_ReadMem(2 bytes @ 0x20000000)  returns TRUE (0107ms, 13583ms total)
T23A0 014:469 JLINK_ReadReg(R15 (PC))  returns 0x20000000 (0010ms, 13486ms total)
T23A0 014:480 JLINK_ClrBPEx(BPHandle = 0x00000010)  returns 0x00 (0020ms, 13507ms total)
T23A0 014:503 JLINK_ReadReg(R0)  returns 0x00000000 (0050ms, 13560ms total)
T23A0 014:556 JLINK_WriteMem(0x200000FC, 0x0040 Bytes, ...) - Data: 51 41 09 9A 08 98 1B 18 51 41 E3 4A 1B 98 10 40 ... -- CPU_WriteMem(64 bytes @ 0x200000FC)  returns 0x40 (0014ms, 13576ms total)
T23A0 014:571 JLINK_WriteReg(R0, 0x000002C0)  returns 0x00 (0006ms, 13583ms total)
T23A0 014:578 JLINK_WriteReg(R1, 0x00000040)  returns 0x00 (0007ms, 13591ms total)
T23A0 014:588 JLINK_WriteReg(R2, 0x200000FC)  returns 0x00 (0005ms, 13599ms total)
T23A0 014:595 JLINK_WriteReg(R3, 0x00000000)  returns 0x00 (0009ms, 13610ms total)
T23A0 014:606 JLINK_WriteReg(R4, 0x00000000)  returns 0x00 (0006ms, 13618ms total)
T23A0 014:613 JLINK_WriteReg(R5, 0x00000000)  returns 0x00 (0006ms, 13625ms total)
T23A0 014:621 JLINK_WriteReg(R6, 0x00000000)  returns 0x00 (0006ms, 13633ms total)
T23A0 014:629 JLINK_WriteReg(R7, 0x00000000)  returns 0x00 (0005ms, 13640ms total)
T23A0 014:636 JLINK_WriteReg(R8, 0x00000000)  returns 0x00 (0009ms, 13651ms total)
T23A0 014:648 JLINK_WriteReg(R9, 0x200000F4)  returns 0x00 (0026ms, 13680ms total)
T23A0 014:676 JLINK_WriteReg(R10, 0x00000000)  returns 0x00 (0020ms, 13702ms total)
T23A0 014:698 JLINK_WriteReg(R11, 0x00000000)  returns 0x00 (0014ms, 13718ms total)
T23A0 014:714 JLINK_WriteReg(R12, 0x00000000)  returns 0x00 (0013ms, 13733ms total)
T23A0 014:729 JLINK_WriteReg(R13 (SP), 0x20001000)  returns 0x00 (0006ms, 13741ms total)
T23A0 014:737 JLINK_WriteReg(R14, 0x20000001)  returns 0x00 (0009ms, 13752ms total)
T23A0 014:748 JLINK_WriteReg(R15 (PC), 0x200000A6)  returns 0x00 (0006ms, 13760ms total)
T23A0 014:756 JLINK_WriteReg(XPSR, 0x01000000)  returns 0x00 (0007ms, 13769ms total)
T23A0 014:765 JLINK_WriteReg(MSP, 0x20001000)  returns 0x00 (0020ms, 13791ms total)
T23A0 014:801 JLINK_WriteReg(PSP, 0x20001000)  returns 0x00 (0006ms, 13812ms total)
T23A0 014:810 JLINK_WriteReg(CFBP, 0x00000000)  returns 0x00 (0011ms, 13826ms total)
T23A0 014:823 JLINK_SetBPEx(Addr = 0x20000000, Type = 0xFFFFFFF2)  returns 0x00000011 (0040ms, 13868ms total)
T23A0 014:880 JLINK_Go() -- CPU_ReadMem(4 bytes @ 0xE0001000) -- CPU_WriteMem(4 bytes @ 0xE0001000) (0104ms, 13988ms total)
T23A0 014:986 JLINK_IsHalted() -- CPU_ReadMem(2 bytes @ 0x20000000)  returns TRUE (0041ms, 14031ms total)
T23A0 015:029 JLINK_ReadReg(R15 (PC))  returns 0x20000000 (0006ms, 13996ms total)
T23A0 015:037 JLINK_ClrBPEx(BPHandle = 0x00000011)  returns 0x00 (0005ms, 14003ms total)
T23A0 015:044 JLINK_ReadReg(R0)  returns 0x00000000 (0005ms, 14010ms total)
T23A0 015:052 JLINK_WriteMem(0x200000FC, 0x0040 Bytes, ...) - Data: 10 92 11 90 FF F7 86 FF 06 20 FF F7 5B FF 01 21 ... -- CPU_WriteMem(64 bytes @ 0x200000FC)  returns 0x40 (0040ms, 14053ms total)
